
**** 02/22/22 21:40:38 ********* PSpice 9.2 (Mar 2000) ******** ID# 1 ********

 * E:\Academics BUET\A Study 2-2\PSPICE\Project\pspice\final\final final\DC Motor Control.sch


 ****     CIRCUIT DESCRIPTION


******************************************************************************




* Schematics Version 9.2
* Tue Feb 22 21:37:44 2022



** Analysis setup **
.tran 0.1n 0.5s 0 0.1m
.OP 


* From [PSPICE NETLIST] section of C:\Program Files\Orcad\PSpice\PSpice.ini:
.lib "nom.lib"

.INC "DC Motor Control.net"



**** INCLUDING "DC Motor Control.net" ****
* Schematics Netlist *



R_R4         0 $N_0001  100k  
R_R3         $N_0001 $N_0002  100k  
R_R2         $N_0004 $N_0003  40k  
C_C1         $N_0002 $N_0003  0.1u IC=0 
X_U1         $N_0001 $N_0004 pos neg $N_0003 uA741
V_V1         pos 0 15V
C_C2         0 $N_0001  0.1u IC=0 
R_R1         0 $N_0004  20k  
V_V2         0 neg 15V
V_V7         $N_0007 0 0.1V
X_U8         0 $N_0008 pos neg $N_0009 uA741
R_R19         $N_0012 $N_0008  1k  
R_R20         $N_0008 $N_0009  1k  
R_R17         $N_0007 $N_0013  1k  
X_U10         0 $N_0013 pos neg $N_0012 uA741
X_U6         0 $N_0016 pos neg $N_0017 uA741
R_R12         $N_0016 $N_0017  1k  
R_R11         $N_0020 $N_0016  15k  
R_R13         $N_0017 $N_0021  1k  
X_U11         $N_0022 $N_0023 Sw_tClose PARAMS: tClose=0 ttran=1u Rclosed=0.01
+  Ropen=1Meg
X_U12         $N_0024 0 Sw_tClose PARAMS: tClose=0 ttran=1u Rclosed=0.01
+  Ropen=1Meg
X_U14         $N_0023 0 Sw_tClose PARAMS: tClose=10 ttran=1u Rclosed=0.01
+  Ropen=1Meg
X_U13         $N_0022 $N_0024 Sw_tClose PARAMS: tClose=10 ttran=1u Rclosed=0.01
+  Ropen=1Meg
R_R16         $N_0024 $N_0023  1k  
X_U9         $N_0025 $N_0009 pos 0 $N_0022 uA741
V_V9         $N_0025 $N_0021 1
R_R5         $N_0003 $N_0028  1k  
X_U3         0 $N_0029 pos neg $N_0030 uA741
V_V4         $N_0033 0 1.184V
V_V5         0 $N_0034 1.184V
X_U4         $N_0030 0 $N_0033 $N_0034 $N_0035 uA741
X_U5         0 $N_0038 pos neg $N_0020 uA741
R_R10         $N_0035 $N_0038  100  
C_C3         $N_0038 $N_0020  10u  
R_R9         $N_0029 $N_0030  71.43k  
R_R8         $N_0041 $N_0029  1k  
V_V8         $N_0041 $N_0028 20.8m
X_R18    $N_0012 $N_0013 $N_0013 DC_Motor_Control_R18 

.subckt DC_Motor_Control_R18 1 2 t  
RT_R18         1 t {(19k*(1-0.9))+.001}
RB_R18         t 2 {(19k*0.9)+.001}
.ends DC_Motor_Control_R18

**** RESUMING "DC Motor Control.cir" ****
.PROBE V(*) I(*) W(*) D(*) NOISE(*) 


.END

**** 02/22/22 21:40:38 ********* PSpice 9.2 (Mar 2000) ******** ID# 1 ********

 * E:\Academics BUET\A Study 2-2\PSPICE\Project\pspice\final\final final\DC Motor Control.sch


 ****     Diode MODEL PARAMETERS


******************************************************************************




               X_U1.dx         X_U1.dy         X_U8.dx         X_U8.dy         
          IS  800.000000E-18  800.000000E-18  800.000000E-18  800.000000E-18 
          RS    1               1.000000E-03    1               1.000000E-03 
         CJO                   10.000000E-12                   10.000000E-12 


               X_U10.dx        X_U10.dy        X_U6.dx         X_U6.dy         
          IS  800.000000E-18  800.000000E-18  800.000000E-18  800.000000E-18 
          RS    1               1.000000E-03    1               1.000000E-03 
         CJO                   10.000000E-12                   10.000000E-12 


               X_U9.dx         X_U9.dy         X_U3.dx         X_U3.dy         
          IS  800.000000E-18  800.000000E-18  800.000000E-18  800.000000E-18 
          RS    1               1.000000E-03    1               1.000000E-03 
         CJO                   10.000000E-12                   10.000000E-12 


               X_U4.dx         X_U4.dy         X_U5.dx         X_U5.dy         
          IS  800.000000E-18  800.000000E-18  800.000000E-18  800.000000E-18 
          RS    1               1.000000E-03    1               1.000000E-03 
         CJO                   10.000000E-12                   10.000000E-12 


**** 02/22/22 21:40:38 ********* PSpice 9.2 (Mar 2000) ******** ID# 1 ********

 * E:\Academics BUET\A Study 2-2\PSPICE\Project\pspice\final\final final\DC Motor Control.sch


 ****     BJT MODEL PARAMETERS


******************************************************************************




               X_U1.qx         X_U8.qx         X_U10.qx        X_U6.qx         
               NPN             NPN             NPN             NPN             
          IS  800.000000E-18  800.000000E-18  800.000000E-18  800.000000E-18 
          BF   93.75           93.75           93.75           93.75         
          NF    1               1               1               1            
          BR    1               1               1               1            
          NR    1               1               1               1            
          CN    2.42            2.42            2.42            2.42         
           D     .87             .87             .87             .87         


               X_U9.qx         X_U3.qx         X_U4.qx         X_U5.qx         
               NPN             NPN             NPN             NPN             
          IS  800.000000E-18  800.000000E-18  800.000000E-18  800.000000E-18 
          BF   93.75           93.75           93.75           93.75         
          NF    1               1               1               1            
          BR    1               1               1               1            
          NR    1               1               1               1            
          CN    2.42            2.42            2.42            2.42         
           D     .87             .87             .87             .87         


**** 02/22/22 21:40:38 ********* PSpice 9.2 (Mar 2000) ******** ID# 1 ********

 * E:\Academics BUET\A Study 2-2\PSPICE\Project\pspice\final\final final\DC Motor Control.sch


 ****     Voltage Controlled Switch MODEL PARAMETERS


******************************************************************************




               X_U11.Smod      X_U12.Smod      X_U14.Smod      X_U13.Smod      
         RON     .01             .01             .01             .01         
        ROFF    1.000000E+06    1.000000E+06    1.000000E+06    1.000000E+06 
         VON    1               1               1               1            
        VOFF    0               0               0               0            


**** 02/22/22 21:40:38 ********* PSpice 9.2 (Mar 2000) ******** ID# 1 ********

 * E:\Academics BUET\A Study 2-2\PSPICE\Project\pspice\final\final final\DC Motor Control.sch


 ****     SMALL SIGNAL BIAS SOLUTION       TEMPERATURE =   27.000 DEG C


******************************************************************************



 NODE   VOLTAGE     NODE   VOLTAGE     NODE   VOLTAGE     NODE   VOLTAGE


(  neg)  -15.0000  (  pos)   15.0000  (X_U1.6)-480.1E-09 (X_U1.7)     .0039     

(X_U1.8)     .0039 (X_U1.9)    0.0000 (X_U3.6) 80.50E-06 (X_U3.7)    -.8529     

(X_U3.8)    -.8529 (X_U3.9)    0.0000 (X_U4.6)    1.4948 (X_U4.7)   -3.0305     

(X_U4.8)   -3.0305 (X_U4.9)    0.0000 (X_U5.6)   -1.4956 (X_U5.7)   16.8460     

(X_U5.8)   16.8460 (X_U5.9)    0.0000 (X_U6.6) 107.2E-06 (X_U6.7)   -1.0370     

(X_U6.8)   -1.0370 (X_U6.9)    0.0000 (X_U8.6)-20.62E-06 (X_U8.7)     .1994     

(X_U8.8)     .1994 (X_U8.9)    0.0000 (X_U9.6)    1.4272 (X_U9.7)   -1.8465     

(X_U9.8)   -1.8465 (X_U9.9)    0.0000 ($N_0001)-94.48E-12                       

($N_0002)     .0032                   ($N_0003)     .0032                       

($N_0004) 19.23E-06                   ($N_0007)     .1000                       

($N_0008) 18.16E-06                   ($N_0009)     .1899                       

($N_0012)    -.1898                   ($N_0013) 20.42E-06                       

($N_0016) 24.94E-06                   ($N_0017)    -.9876                       

($N_0020)   14.8160                   ($N_0021)    -.9876                       

($N_0022)     .1837                   ($N_0023)     .0919                       

($N_0024)     .0919                   ($N_0025)     .0124                       

($N_0028)    -.0088                   ($N_0029) 23.53E-06                       

($N_0030)    -.8523                   ($N_0033)    1.1840                       

($N_0034)   -1.1840                   ($N_0035)   -1.0003                       

($N_0038)   -1.0003                   ($N_0041)     .0120                       

(X_U1.10)    -.6077                   (X_U1.11)   14.9600                       

(X_U1.12)   14.9600                   (X_U1.13)    -.5938                       

(X_U1.14)    -.5938                   (X_U1.53)   14.0000                       

(X_U1.54)  -14.0000                   (X_U1.90)     .0121                       

(X_U1.91)   40.0000                   (X_U1.92)  -40.0000                       

(X_U1.99)    0.0000                   (X_U10.6) 22.04E-06                       

(X_U10.7)    -.2043                   (X_U10.8)    -.2043                       

(X_U10.9)    0.0000                   (X_U11.3)    0.0000                       

(X_U12.3)    0.0000                   (X_U13.3)    0.0000                       

(X_U14.3)    0.0000                   (X_U3.10)    -.6077                       

(X_U3.11)   14.9600                   (X_U3.12)   14.9600                       

(X_U3.13)    -.5938                   (X_U3.14)    -.5938                       

(X_U3.53)   14.0000                   (X_U3.54)  -14.0000                       

(X_U3.90)    -.0119                   (X_U3.91)   40.0000                       

(X_U3.92)  -40.0000                   (X_U3.99)    0.0000                       

(X_U4.10)    -.6395                   (X_U4.11)    1.1047                       

(X_U4.12)    1.1840                   (X_U4.13)    -.6117                       

(X_U4.14)    -.6395                   (X_U4.53)     .1840                       

(X_U4.54)    -.1840                   (X_U4.90)  -40.6060                       

(X_U4.91)   40.0000                   (X_U4.92)  -40.0000                       

(X_U4.99)    0.0000                   (X_U5.10)    -.6395                       

(X_U5.11)   15.0000                   (X_U5.12)   14.9210                       

(X_U5.13)    -.6395                   (X_U5.14)    -.6117                       

(X_U5.53)   14.0000                   (X_U5.54)  -14.0000                       

(X_U5.90)   40.6060                   (X_U5.91)   40.0000                       

(X_U5.92)  -40.0000                   (X_U5.99)    0.0000                       

(X_U6.10)    -.6077                   (X_U6.11)   14.9600                       

(X_U6.12)   14.9600                   (X_U6.13)    -.5938                       

(X_U6.14)    -.5938                   (X_U6.53)   14.0000                       

(X_U6.54)  -14.0000                   (X_U6.90)    -.9876                       

(X_U6.91)   40.0000                   (X_U6.92)  -40.0000                       

(X_U6.99)    0.0000                   (X_U8.10)    -.6077                       

(X_U8.11)   14.9600                   (X_U8.12)   14.9600                       

(X_U8.13)    -.5938                   (X_U8.14)    -.5938                       

(X_U8.53)   14.0000                   (X_U8.54)  -14.0000                       

(X_U8.90)     .1900                   (X_U8.91)   40.0000                       

(X_U8.92)  -40.0000                   (X_U8.99)    0.0000                       

(X_U9.10)    -.4474                   (X_U9.11)   14.9240                       

(X_U9.12)   15.0000                   (X_U9.13)    -.4208                       

(X_U9.14)    -.4473                   (X_U9.53)   14.0000                       

(X_U9.54)    1.0000                   (X_U9.90)  -40.6040                       

(X_U9.91)   40.0000                   (X_U9.92)  -40.0000                       

(X_U9.99)    7.5000                   (X_U10.10)    -.6077                      

(X_U10.11)   14.9600                  (X_U10.12)   14.9600                      

(X_U10.13)    -.5938                  (X_U10.14)    -.5938                      

(X_U10.53)   14.0000                  (X_U10.54)  -14.0000                      

(X_U10.90)    -.2897                  (X_U10.91)   40.0000                      

(X_U10.92)  -40.0000                  (X_U10.99)    0.0000                  




    VOLTAGE SOURCE CURRENTS
    NAME         CURRENT

    V_V1         2.878E-02
    V_V2        -1.000E-02
    V_V7        -9.998E-05
    V_V9        -4.325E-10
    V_V4        -1.453E-04
    V_V5         4.046E-02
    V_V8        -1.201E-05
    X_U1.vb     -4.801E-12
    X_U1.vc      1.400E-11
    X_U1.ve      1.455E-11
    X_U1.vlim    1.213E-05
    X_U1.vlp    -3.999E-11
    X_U1.vln    -4.002E-11
    X_U8.vb     -2.062E-10
    X_U8.vc      1.381E-11
    X_U8.ve      1.455E-11
    X_U8.vlim    1.900E-04
    X_U8.vlp    -3.981E-11
    X_U8.vln    -4.019E-11
    X_U10.vb     2.204E-10
    X_U10.vc     1.419E-11
    X_U10.ve     1.455E-11
    X_U10.vlim  -2.897E-04
    X_U10.vlp   -4.029E-11
    X_U10.vln   -3.971E-11
    X_U6.vb      1.072E-09
    X_U6.vc      1.499E-11
    X_U6.ve      1.273E-11
    X_U6.vlim   -9.876E-04
    X_U6.vlp    -4.099E-11
    X_U6.vln    -3.902E-11
    X_U11.V1     0.000E+00
    X_U12.V1     0.000E+00
    X_U14.V1     0.000E+00
    X_U13.V1     0.000E+00
    X_U9.vb      1.427E-05
    X_U9.vc      1.382E-11
    X_U9.ve     -4.060E-02
    X_U9.vlim   -4.060E-02
    X_U9.vlp    -8.060E-11
    X_U9.vln     1.107E-05
    X_U3.vb      8.050E-10
    X_U3.vc      1.485E-11
    X_U3.ve      1.455E-11
    X_U3.vlim   -1.193E-05
    X_U3.vlp    -4.001E-11
    X_U3.vln    -3.999E-11
    X_U4.vb      1.495E-05
    X_U4.vc      1.185E-12
    X_U4.ve     -4.061E-02
    X_U4.vlim   -4.061E-02
    X_U4.vlp    -8.061E-11
    X_U4.vln     1.179E-05
    X_U5.vb     -1.496E-05
    X_U5.vc     -3.962E-02
    X_U5.ve      2.910E-11
    X_U5.vlim    4.061E-02
    X_U5.vlp     1.189E-05
    X_U5.vln    -8.061E-11

    TOTAL POWER DISSIPATION  -2.10E-01  WATTS


**** 02/22/22 21:40:38 ********* PSpice 9.2 (Mar 2000) ******** ID# 1 ********

 * E:\Academics BUET\A Study 2-2\PSPICE\Project\pspice\final\final final\DC Motor Control.sch


 ****     OPERATING POINT INFORMATION      TEMPERATURE =   27.000 DEG C


******************************************************************************






**** VOLTAGE-CONTROLLED CURRENT SOURCES


NAME         X_U1.ga     X_U1.gcm    X_U8.ga     X_U8.gcm    X_U10.ga  
I-SOURCE    -3.617E-09  -3.622E-09  -3.416E-09  -3.622E-09  -3.843E-09

NAME         X_U10.gcm   X_U6.ga     X_U6.gcm    X_U9.ga     X_U9.gcm  
I-SOURCE    -3.622E-09  -4.695E-09  -3.622E-09  -1.432E-05  -4.737E-08

NAME         X_U3.ga     X_U3.gcm    X_U4.ga     X_U4.gcm    X_U5.ga   
I-SOURCE    -4.427E-09  -3.622E-09  -1.495E-05  -3.812E-09   1.495E-05

NAME         X_U5.gcm  
I-SOURCE    -3.812E-09


**** VOLTAGE-CONTROLLED VOLTAGE SOURCES


NAME         X_U1.egnd   X_U8.egnd   X_U10.egnd  X_U6.egnd   X_U9.egnd 
V-SOURCE     0.000E+00   0.000E+00   0.000E+00   0.000E+00   7.500E+00
I-SOURCE    -1.217E-05  -1.901E-04   2.897E-04   9.876E-04   4.060E-02

NAME         X_U3.egnd   X_U4.egnd   X_U5.egnd 
V-SOURCE     0.000E+00   0.000E+00   0.000E+00
I-SOURCE     1.189E-05   4.061E-02  -4.061E-02


**** CURRENT-CONTROLLED CURRENT SOURCES


NAME         X_U1.fb     X_U8.fb     X_U10.fb    X_U6.fb     X_U9.fb   
I-SOURCE    -5.027E-05  -2.174E-03   2.328E-03   1.135E-02   1.345E-01

NAME         X_U3.fb     X_U4.fb     X_U5.fb   
I-SOURCE     8.531E-03   7.091E-02  -2.091E-01


**** CURRENT-CONTROLLED VOLTAGE SOURCES


NAME         X_U1.hlim   X_U8.hlim   X_U10.hlim  X_U6.hlim   X_U9.hlim 
V-SOURCE     1.213E-02   1.900E-01  -2.897E-01  -9.876E-01  -4.060E+01
I-SOURCE    -2.425E-14  -3.801E-13   5.794E-13   1.976E-12   1.107E-05

NAME         X_U3.hlim   X_U4.hlim   X_U5.hlim 
V-SOURCE    -1.193E-02  -4.061E+01   4.061E+01
I-SOURCE     2.387E-14   1.179E-05  -1.189E-05


**** DIODES


NAME         X_U1.dc     X_U1.de     X_U1.dlp    X_U1.dln    X_U1.dp   
MODEL        X_U1.dy     X_U1.dy     X_U1.dx     X_U1.dx     X_U1.dx   
ID          -1.40E-11   -1.40E-11   -4.00E-11   -4.00E-11   -3.00E-11 
VD          -1.40E+01   -1.40E+01   -4.00E+01   -4.00E+01   -3.00E+01 
REQ          1.00E+12    1.00E+12    1.00E+12    1.00E+12    1.00E+12 
CAP          2.58E-12    2.58E-12    0.00E+00    0.00E+00    0.00E+00 

NAME         X_U8.dc     X_U8.de     X_U8.dlp    X_U8.dln    X_U8.dp   
MODEL        X_U8.dy     X_U8.dy     X_U8.dx     X_U8.dx     X_U8.dx   
ID          -1.38E-11   -1.42E-11   -3.98E-11   -4.02E-11   -3.00E-11 
VD          -1.38E+01   -1.42E+01   -3.98E+01   -4.02E+01   -3.00E+01 
REQ          1.00E+12    1.00E+12    1.00E+12    1.00E+12    1.00E+12 
CAP          2.60E-12    2.57E-12    0.00E+00    0.00E+00    0.00E+00 

NAME         X_U10.dc    X_U10.de    X_U10.dlp   X_U10.dln   X_U10.dp  
MODEL        X_U10.dy    X_U10.dy    X_U10.dx    X_U10.dx    X_U10.dx  
ID          -1.42E-11   -1.38E-11   -4.03E-11   -3.97E-11   -3.00E-11 
VD          -1.42E+01   -1.38E+01   -4.03E+01   -3.97E+01   -3.00E+01 
REQ          1.00E+12    1.00E+12    1.00E+12    1.00E+12    1.00E+12 
CAP          2.57E-12    2.60E-12    0.00E+00    0.00E+00    0.00E+00 

NAME         X_U6.dc     X_U6.de     X_U6.dlp    X_U6.dln    X_U6.dp   
MODEL        X_U6.dy     X_U6.dy     X_U6.dx     X_U6.dx     X_U6.dx   
ID          -1.50E-11   -1.30E-11   -4.10E-11   -3.90E-11   -3.00E-11 
VD          -1.50E+01   -1.30E+01   -4.10E+01   -3.90E+01   -3.00E+01 
REQ          1.00E+12    1.00E+12    1.00E+12    1.00E+12    1.00E+12 
CAP          2.50E-12    2.67E-12    0.00E+00    0.00E+00    0.00E+00 

NAME         X_U9.dc     X_U9.de     X_U9.dlp    X_U9.dln    X_U9.dp   
MODEL        X_U9.dy     X_U9.dy     X_U9.dx     X_U9.dx     X_U9.dx   
ID          -1.38E-11    4.06E-02   -8.06E-11    1.11E-05   -1.50E-11 
VD          -1.38E+01    8.16E-01   -8.06E+01    6.04E-01   -1.50E+01 
REQ          1.00E+12    6.37E-01    1.00E+12    2.34E+03    1.00E+12 
CAP          2.60E-12    1.86E-11    0.00E+00    0.00E+00    0.00E+00 

NAME         X_U3.dc     X_U3.de     X_U3.dlp    X_U3.dln    X_U3.dp   
MODEL        X_U3.dy     X_U3.dy     X_U3.dx     X_U3.dx     X_U3.dx   
ID          -1.49E-11   -1.31E-11   -4.00E-11   -4.00E-11   -3.00E-11 
VD          -1.49E+01   -1.31E+01   -4.00E+01   -4.00E+01   -3.00E+01 
REQ          1.00E+12    1.00E+12    1.00E+12    1.00E+12    1.00E+12 
CAP          2.51E-12    2.66E-12    0.00E+00    0.00E+00    0.00E+00 

NAME         X_U4.dc     X_U4.de     X_U4.dlp    X_U4.dln    X_U4.dp   
MODEL        X_U4.dy     X_U4.dy     X_U4.dx     X_U4.dx     X_U4.dx   
ID          -1.19E-12    4.06E-02   -8.06E-11    1.18E-05   -2.37E-12 
VD          -1.18E+00    8.16E-01   -8.06E+01    6.06E-01   -2.37E+00 
REQ          1.00E+12    6.37E-01    1.00E+12    2.19E+03    1.00E+12 
CAP          6.77E-12    1.86E-11    0.00E+00    0.00E+00    0.00E+00 

NAME         X_U5.dc     X_U5.de     X_U5.dlp    X_U5.dln    X_U5.dp   
MODEL        X_U5.dy     X_U5.dy     X_U5.dx     X_U5.dx     X_U5.dx   
ID           3.96E-02   -2.88E-11    1.19E-05   -8.06E-11   -3.00E-11 
VD           8.16E-01   -2.88E+01    6.06E-01   -8.06E+01   -3.00E+01 
REQ          6.53E-01    1.00E+12    2.18E+03    1.00E+12    1.00E+12 
